Title: * .step'ed log file data
Date: N/A
Plotname: unknown
Flags: real forward
No. Variables: 40
No. Points: 8
Offset:   0.0000000000000000e+000
Command: Linear Technology Corporation LTspice IV
Variables:
	0	ac	step
	1	ah1s	unknown
	2	ah1c	unknown
	3	avh2s	unknown
	4	avh2c	unknown
	5	avh3s	unknown
	6	avh3c	unknown
	7	avh4s	unknown
	8	avh4c	unknown
	9	avh5s	unknown
	10	avh5c	unknown
	11	avh6s	unknown
	12	avh6c	unknown
	13	avh7s	unknown
	14	avh7c	unknown
	15	avh8s	unknown
	16	avh8c	unknown
	17	avh9s	unknown
	18	avh9c	unknown
	19	avh10s	unknown
	20	avh10c	unknown
	21	i_in_s	unknown
	22	i_in_c	unknown
	23	fundamental_out_v_rms	unknown
	24	phase_deg	unknown
	25	gain	unknown
	26	gain_db	unknown
	27	z_in_mod	unknown
	28	z_in_ph_deg	unknown
	29	h2	unknown
	30	h3	unknown
	31	h4	unknown
	32	h5	unknown
	33	h6	unknown
	34	h7	unknown
	35	h8	unknown
	36	h9	unknown
	37	h10	unknown
	38	thd_persent	unknown
	39	thd_db	unknown
Values:
0		1.000000000000000e-003
	-3.906992946930000e-006
	-4.025443180010000e-006
	7.911410557850000e-009
	2.897123875690000e-007
	-1.488665678090000e-008
	2.807515405360000e-009
	-2.725457046560000e-009
	-9.043205375630000e-009
	-4.731472222380000e-009
	1.350947475180000e-009
	-3.495676011690000e-009
	-7.974565825150001e-009
	2.018131366830000e-010
	-4.357987400640000e-010
	-3.284558285000000e-009
	-5.527954818380000e-009
	2.436147069860000e-009
	-2.035119413850000e-009
	-2.271880922470000e-009
	-3.000276837340000e-009
	-1.999352479520000e-006
	5.081316726740000e-007
	7.933320450210001e-006
	4.585549936650000e+001
	3.739803125110000e-002
	-2.854302519620000e+001
	2.423757629570000e+002
	1.425971338230000e+001
	5.166410804470000e+000
	2.700513322600000e-001
	1.683686083300000e-001
	8.771509400010000e-002
	1.552148013530000e-001
	8.561224148669999e-003
	1.146251565920000e-001
	5.658682974000000e-002
	6.708713157370000e-002
	5.181291041500000e+000
	-2.571124024010000e+001
1		1.000000000000000e-002
	-3.878259961900000e-004
	9.978697856950001e-006
	1.982378530370000e-006
	2.940593581520000e-005
	1.590108369940000e-006
	-1.051268968690000e-006
	3.185690442880000e-007
	4.409773756630000e-007
	8.089922488270000e-007
	3.744383091470000e-008
	5.568259724930000e-007
	2.697589148300000e-007
	2.301149691330000e-007
	5.246084677700000e-008
	-1.637976582900000e-007
	4.182047222320000e-007
	1.293392385460000e-007
	4.528593618050000e-007
	-1.424313941090000e-007
	-2.526788959020000e-007
	-1.886261631540000e-005
	6.344422972170000e-006
	5.486503034390000e-004
	-1.473885608400000e+000
	2.586362333750000e-001
	-1.174621266320000e+001
	2.512435938940000e+002
	1.859031664210000e+001
	7.596945445970000e+000
	4.913473230200000e-001
	1.402253561890000e-001
	2.087509317220000e-001
	1.594848888250000e-001
	6.083683572350000e-002
	1.157708143570000e-001
	1.213976193540000e-001
	7.476587224230000e-002
	7.621096322210000e+000
	-2.235965098680000e+001
2		5.000000000000000e-002
	-5.390435156140000e-003
	1.171551014920000e-004
	4.880677455520000e-006
	7.720806413830000e-005
	-1.501665080560000e-005
	-5.440906217920000e-006
	-1.926221672850000e-006
	3.690986935630000e-006
	2.238242654440000e-006
	-2.664266900400000e-006
	-4.683497191960000e-006
	2.928704660420000e-007
	1.309080359240000e-006
	8.686254540000000e-007
	1.546381911480000e-006
	5.923310088880000e-007
	6.788849779850000e-007
	2.703436490800000e-006
	-6.320897701260000e-008
	5.322380393970000e-007
	-4.739209292700000e-005
	3.896272812880000e-005
	7.625026752790000e-003
	-1.245063906820000e+000
	7.188944164840000e-001
	-2.866697789160000e+000
	4.074826893110000e+002
	3.942484187980000e+001
	1.434836115230000e+000
	2.962317689380000e-001
	7.721815941980000e-002
	6.453728605870000e-002
	8.703448149159999e-002
	2.913828171620000e-002
	3.071280417330000e-002
	5.169741963920000e-002
	9.940787913440000e-003
	1.472675932840000e+000
	-3.663785621130000e+001
3		1.000000000000000e-001
	-1.194758836120000e-002
	2.642203184510000e-004
	4.778144802400000e-006
	7.769575005970000e-005
	-1.553403267100000e-005
	9.906782007640000e-007
	-2.751485155770000e-006
	1.445860438360000e-006
	2.508048635250000e-006
	6.959894332540000e-007
	-2.426649452630000e-007
	-2.617138589840000e-006
	-1.141121366640000e-006
	1.428519222200000e-007
	-1.193958696960000e-006
	-1.007598464260000e-006
	-2.252624395160000e-006
	1.026930362480000e-006
	3.622233318340000e-007
	1.103841994310000e-006
	-5.916975040260000e-005
	8.211547194800000e-005
	1.690057277290000e-002
	-1.266886789810000e+000
	7.967006409110000e-001
	-1.974096669260000e+000
	4.940091641750000e+002
	5.422469966060000e+001
	6.513741878080001e-001
	1.302504346560000e-001
	2.600930383190000e-002
	2.178005163450000e-002
	2.199374523500000e-002
	9.623255772260000e-003
	1.307311143550000e-002
	2.071595387960000e-002
	9.721378145220000e-003
	6.660895261660000e-001
	-4.352934790590000e+001
4		2.000000000000000e-001
	-2.496413076570000e-002
	5.480566156880000e-004
	7.381661632000000e-006
	9.617671395300000e-005
	-1.764104032270000e-005
	-1.715124540450000e-006
	3.617322745860000e-006
	-3.268745697240000e-006
	-3.937535989220000e-006
	-1.358861470680000e-006
	-4.360677548220000e-007
	-6.893416267270000e-007
	-4.939219190600000e-006
	4.660715237090000e-007
	-3.722229999560000e-006
	1.304122136670000e-007
	-1.335218356100000e-006
	-1.830678819190000e-007
	-1.749606890590000e-006
	-6.720501029420000e-007
	-7.852420194290001e-005
	1.681613390490000e-004
	3.531311911850000e-002
	-1.257655952730000e+000
	8.323381997850000e-001
	-1.594003463220000e+000
	5.388171434710000e+002
	6.496942352860000e+001
	3.862995958720000e-001
	7.098164133940001e-002
	1.952499683860000e-002
	1.668158626860000e-002
	3.266653034220000e-003
	1.986836614730000e-002
	1.491586738770000e-002
	5.397284723940000e-003
	7.505923312520000e-003
	3.945106432820000e-001
	-4.807882551420000e+001
5		5.000000000000000e-001
	-6.360708260570000e-002
	1.403088005300000e-003
	6.650122614020000e-006
	1.067878416320000e-004
	3.548417045440000e-006
	-4.840954346500000e-005
	-2.479710847480000e-005
	1.097326806070000e-005
	-6.265028518070000e-006
	8.211421367270000e-007
	-1.045641234300000e-006
	4.184974358830000e-006
	-3.486775777000000e-007
	4.522118050670000e-007
	-9.304530817019999e-006
	6.855224238360000e-006
	5.115991196630000e-006
	6.175615571020000e-006
	-8.385977048909999e-006
	3.582047167120000e-007
	-2.514665715480000e-004
	4.852693966970000e-004
	8.997588136340000e-002
	-1.263664083860000e+000
	8.483007447380000e-001
	-1.429003034470000e+000
	4.574109241650000e+002
	6.260681199900000e+001
	1.681710286740000e-001
	7.629278325670000e-002
	4.262102485210000e-002
	9.931402230790001e-003
	6.780027490940000e-003
	8.975225222810000e-004
	1.816522321700000e-002
	1.260472932320000e-002
	1.319284294370000e-002
	1.916427617530000e-001
	-5.435015158350000e+001
6		7.500000000000000e-001
	-9.607217998780000e-002
	2.234886395800000e-003
	1.126955186410000e-006
	3.517380319190000e-005
	2.906332121250000e-005
	3.470971496300000e-005
	-2.889214793200000e-005
	1.541175432450000e-005
	-3.336940698380000e-006
	1.435850661860000e-005
	-1.409032897220000e-006
	-3.016449570390000e-005
	-2.390450496350000e-005
	-1.380873541370000e-005
	2.563456773350000e-006
	-1.840697548490000e-005
	-2.504362686770000e-005
	-9.541186757430000e-008
	6.447141168290000e-006
	-1.040522621800000e-005
	-4.327472042740000e-004
	7.558010101200000e-004
	1.359033368600000e-001
	-1.332607085490000e+000
	8.542059651510000e-001
	-1.368748002060000e+000
	4.305781179010000e+002
	6.020594375750000e+001
	3.662073041780000e-002
	4.710885869800000e-002
	3.407521879770000e-002
	1.533969148300000e-002
	3.142347720810000e-002
	2.872716173120000e-002
	1.933920138460000e-002
	2.606065062120000e-002
	1.273768747230000e-002
	8.935795867849999e-002
	-6.097733521880000e+001
7		1.000000000000000e+000
	-1.285718756280000e-001
	2.879783410460000e-003
	-2.352401886230000e-005
	7.619762322890000e-005
	-5.167767939110000e-005
	-4.310610191440000e-005
	-5.119494577080000e-006
	3.247033932420000e-005
	-6.821225583289999e-005
	-8.092462055280000e-006
	-3.244339687860000e-005
	2.007477234550000e-005
	2.087122349140000e-005
	7.477418380510000e-006
	4.177864232480000e-006
	-5.429169883320000e-006
	3.002761456650000e-006
	1.699259657010000e-005
	-3.170737409730000e-006
	9.493001254970000e-006
	-6.837414989060000e-004
	1.077628760890000e-003
	1.818736943870000e-001
	-1.283109937260000e+000
	8.573608174690000e-001
	-1.336727364160000e+000
	3.917761246390000e+002
	5.760540184400000e+001
	6.200905819260000e-002
	5.232783607360000e-002
	2.556018294620000e-002
	5.341244725970000e-002
	2.966618697620000e-002
	1.723914006390000e-002
	5.326873699840000e-003
	1.341781720500000e-002
	7.782432309690000e-003
	1.074047878590000e-001
	-5.937952716710000e+001
